
T13B0 000:405 SEGGER J-Link V4.80g Log File (0002ms, 0300ms total)
T13B0 000:405 DLL Compiled: Feb 13 2014 20:50:02 (0002ms, 0300ms total)
T13B0 000:405 Logging started @ 2014-09-09 16:13 (0002ms, 0300ms total)
T13B0 000:407 JLINK_SetWarnOutHandler(...) (0000ms, 0300ms total)
T13B0 000:407 JLINK_OpenEx(...)
Firmware: J-Link ARM V8 compiled Nov 25 2013 19:20:08
Hardware: V8.00
S/N: 99999994
Feature(s): RDI,FlashDL,FlashBP,JFlash,GDBFULL  returns O.K. (0311ms, 0611ms total)
T13B0 000:719 JLINK_SetErrorOutHandler(...) (0000ms, 0611ms total)
T13B0 000:719 JLINK_ExecCommand("ProjectFile = "F:\work\pcb\FPInterro\code\JLinkSettings.ini"", ...)  returns 0x00 (0001ms, 0612ms total)
T13B0 000:720 JLINK_ExecCommand("Device = STM32F429IG", ...)Device "STM32F429IG" selected (1024 KB flash, 192 KB RAM).  returns 0x00 (0002ms, 0614ms total)
T13B0 000:722 JLINK_ExecCommand("DisableConnectionTimeout", ...)  returns 0x01 (0000ms, 0614ms total)
T13B0 000:722 JLINK_GetHardwareVersion()  returns 0x13880 (0000ms, 0614ms total)
T13B0 000:722 JLINK_GetDLLVersion()  returns 48007 (0000ms, 0614ms total)
T13B0 000:722 JLINK_GetFirmwareString(...) (0000ms, 0614ms total)
T13B0 000:722 JLINK_GetDLLVersion()  returns 48007 (0000ms, 0614ms total)
T13B0 000:722 JLINK_GetCompileDateTime() (0000ms, 0614ms total)
T13B0 000:722 JLINK_GetFirmwareString(...) (0000ms, 0614ms total)
T13B0 000:722 JLINK_GetHardwareVersion()  returns 0x13880 (0000ms, 0614ms total)
T13B0 000:722 JLINK_TIF_Select(JLINKARM_TIF_SWD)  returns 0x00 (0004ms, 0618ms total)
T13B0 000:726 JLINK_SetSpeed(10000) (0002ms, 0620ms total)
T13B0 000:728 JLINK_GetId() >0x108 TIF>Found SWD-DP with ID 0x2BA01477 >0x0D TIF> >0x28 TIF> >0x0D TIF> >0x28 TIF> >0x0D TIF> >0x21 TIF> >0x0D TIF> >0x28 TIF> >0x0D TIF> >0x28 TIF> >0x0D TIF> >0x28 TIF> >0x0D TIF> >0x21 TIF> >0x0D TIF> >0x21 TIF> >0x0D TIF> >0x28 TIF> >0x0D TIF> >0x21 TIF> >0x0D TIF> >0x21 TIF> >0x0D TIF> >0x28 TIF> >0x0D TIF> >0x21 TIF> >0x0D TIF> >0x21 TIF> >0x108 TIF>Found SWD-DP with ID 0x2BA01477 >0x0D TIF> >0x21 TIF> >0x0D TIF> >0x28 TIF> >0x0D TIF> >0x28 TIF> >0x0D TIF> >0x21 TIF>
 >0x0D TIF> >0x28 TIF> >0x0D TIF> >0x21 TIF> >0x0D TIF> >0x21 TIF> >0x0D TIF> >0x21 TIF> >0x0D TIF> >0x21 TIF> >0x0D TIF> >0x28 TIF> >0x0D TIF> >0x28 TIF> >0x0D TIF> >0x21 TIF> >0x0D TIF> >0x28 TIF> >0x0D TIF> >0x28 TIF> >0x0D TIF> >0x28 TIF> >0x0D TIF> >0x21 TIF> >0x0D TIF> >0x21 TIF> >0x0D TIF> >0x28 TIF> >0x0D TIF> >0x21 TIF> >0x0D TIF> >0x21 TIF>Found Cortex-M4 r0p1, Little endian. -- CPU_WriteMem(4 bytes @ 0xE0002000) -- CPU_ReadMem(4 bytes @ 0xE000EDF0) -- CPU_ReadMem(4 bytes @ 0xE0002000)
FPUnit: 6 code (BP) slots and 2 literal slots -- CPU_ReadMem(4 bytes @ 0xE000EDFC) -- CPU_ReadMem(4 bytes @ 0xE0001000) -- CPU_WriteMem(4 bytes @ 0xE0001000) -- CPU_ReadMem(4 bytes @ 0xE00FF010)TPIU fitted. -- CPU_ReadMem(4 bytes @ 0xE00FF014)ETM fitted. -- CPU_ReadMem(4 bytes @ 0xE00FF018) >0x0D TIF> >0x21 TIF>  returns 0x2BA01477 (0088ms, 0708ms total)
T13B0 000:816 JLINK_GetDeviceFamily()  returns 14 (0000ms, 0708ms total)
T13B0 000:816 JLINK_ReadMem (0xE00FFFF0, 0x0010 Bytes, ...) -- CPU is running -- CPU_ReadMem(16 bytes @ 0xE00FFFF0) -- Data:  0D 00 00 00 10 00 00 00 05 00 00 00 B1 00 00 00  returns 0x00 (0001ms, 0709ms total)
T13B0 000:817 JLINK_ReadMem (0xE00FFFD0, 0x0020 Bytes, ...) -- CPU is running -- CPU_ReadMem(32 bytes @ 0xE00FFFD0) -- Data:  00 00 00 00 00 00 00 00 00 00 00 00 00 00 00 00 ...  returns 0x00 (0001ms, 0710ms total)
T13B0 000:818 JLINK_ReadMem (0xE00FF000, 0x0018 Bytes, ...) -- CPU is running -- CPU_ReadMem(24 bytes @ 0xE00FF000) -- Data:  03 F0 F0 FF 03 20 F0 FF 03 30 F0 FF 03 10 F0 FF ...  returns 0x00 (0001ms, 0711ms total)
T13B0 000:819 JLINK_ReadMemU32(0xE000ED00, 0x0001 Items, ...) -- CPU is running -- CPU_ReadMem(4 bytes @ 0xE000ED00) -- Data:  41 C2 0F 41  returns 0x01 (0001ms, 0712ms total)
T13B0 000:820 JLINK_ReadMemU32(0xE000EF40, 0x0001 Items, ...) -- CPU is running -- CPU_ReadMem(4 bytes @ 0xE000EF40) -- Data:  21 00 11 10  returns 0x01 (0001ms, 0713ms total)
T13B0 000:821 JLINK_ReadMemU32(0xE000EF44, 0x0001 Items, ...) -- CPU is running -- CPU_ReadMem(4 bytes @ 0xE000EF44) -- Data:  11 00 00 11  returns 0x01 (0001ms, 0714ms total)
T13B0 000:822 JLINK_SetResetType(JLINKARM_RESET_TYPE_NORMAL)  returns JLINKARM_RESET_TYPE_NORMAL (0000ms, 0714ms total)
T13B0 000:822 JLINK_Reset() -- CPU is running -- CPU_WriteMem(4 bytes @ 0xE000EDF0) -- CPU is running -- CPU_WriteMem(4 bytes @ 0xE000EDFC) >0x35 TIF> -- CPU is running -- CPU_WriteMem(4 bytes @ 0xE000ED0C) -- CPU is running -- CPU_ReadMem(4 bytes @ 0xE000EDF0) -- CPU is running -- CPU_ReadMem(4 bytes @ 0xE000EDF0) -- CPU is running -- CPU_WriteMem(4 bytes @ 0xE000EDF0) -- CPU is running -- CPU_WriteMem(4 bytes @ 0xE000EDFC) -- CPU is running -- CPU_ReadMem(4 bytes @ 0xE000EDF0)
 -- CPU_WriteMem(4 bytes @ 0xE0002000) -- CPU_ReadMem(4 bytes @ 0xE000EDFC) -- CPU_ReadMem(4 bytes @ 0xE0001000) (0024ms, 0738ms total)
T13B0 000:846 JLINK_ReadReg(R15 (PC))  returns 0x080001C0 (0000ms, 0738ms total)
T13B0 000:846 JLINK_ReadReg(XPSR)  returns 0x01000000 (0000ms, 0738ms total)
T13B0 000:846 JLINK_Halt()  returns 0x00 (0000ms, 0738ms total)
T13B0 000:846 JLINK_IsHalted()  returns TRUE (0000ms, 0738ms total)
T13B0 000:846 JLINK_ReadMemU32(0xE000EDF0, 0x0001 Items, ...) -- CPU_ReadMem(4 bytes @ 0xE000EDF0) -- Data:  03 00 03 00  returns 0x01 (0001ms, 0739ms total)
T13B0 000:847 JLINK_WriteU32(0xE000EDF0, 0xA05F0003) -- CPU_WriteMem(4 bytes @ 0xE000EDF0)  returns 0x00 (0001ms, 0740ms total)
T13B0 000:848 JLINK_WriteU32(0xE000EDFC, 0x01000000) -- CPU_WriteMem(4 bytes @ 0xE000EDFC)  returns 0x00 (0001ms, 0741ms total)
T13B0 000:849 JLINK_GetHWStatus(...)  returns 0x00 (0001ms, 0742ms total)
T13B0 000:850 JLINK_GetNumBPUnits(Type = 0xFFFFFF00)  returns 0x06 (0000ms, 0742ms total)
T13B0 000:850 JLINK_GetNumBPUnits(Type = 0xF0)  returns 0x2000 (0000ms, 0742ms total)
T13B0 000:850 JLINK_GetNumWPUnits()  returns 0x04 (0000ms, 0742ms total)
T13B0 000:850 JLINK_GetSpeed()  returns 0xFA0 (0000ms, 0742ms total)
T13B0 000:850 JLINK_ReadMemU32(0xE000E004, 0x0001 Items, ...) -- CPU_ReadMem(4 bytes @ 0xE000E004) -- Data:  02 00 00 00  returns 0x01 (0001ms, 0743ms total)
T13B0 000:851 JLINK_ReadMemU32(0xE000E004, 0x0001 Items, ...) -- CPU_ReadMem(4 bytes @ 0xE000E004) -- Data:  02 00 00 00  returns 0x01 (0001ms, 0744ms total)
T13B0 000:852 JLINK_WriteMem(0xE0001000, 0x001C Bytes, ...) -- Data:  01 00 00 00 00 00 00 00 00 00 00 00 00 00 00 00 ... -- CPU_WriteMem(28 bytes @ 0xE0001000)  returns 0x1C (0001ms, 0745ms total)
T13B0 000:853 JLINK_ReadMem (0xE0001000, 0x001C Bytes, ...) -- CPU_ReadMem(28 bytes @ 0xE0001000) -- Data:  01 00 00 40 00 00 00 00 00 00 00 00 00 00 00 00 ...  returns 0x00 (0001ms, 0746ms total)
T13B0 000:854 JLINK_ReadReg(R15 (PC))  returns 0x080001C0 (0000ms, 0746ms total)
T13B0 000:854 JLINK_ReadReg(XPSR)  returns 0x01000000 (0000ms, 0746ms total)
T13B0 000:897 JLINK_ReadMem (0x08000000, 0x1000 Bytes, ...) -- CPU_ReadMem(4096 bytes @ 0x08000000) -- Updating C cache (4096 bytes @ 0x08000000) -- Read from C cache (4096 bytes @ 0x08000000) -- Data:  38 28 02 20 C1 01 00 08 F5 06 00 08 91 05 00 08 ...  returns 0x00 (0033ms, 0779ms total)
T13B0 000:931 JLINK_ReadMem (0x08001000, 0x1000 Bytes, ...) -- CPU_ReadMem(4096 bytes @ 0x08001000) -- Updating C cache (4096 bytes @ 0x08001000) -- Read from C cache (4096 bytes @ 0x08001000) -- Data:  32 20 00 EB 08 10 64 21 B0 FB F1 F0 00 F0 0F 00 ...  returns 0x00 (0032ms, 0811ms total)
T13B0 000:964 JLINK_ReadMem (0x08002000, 0x1000 Bytes, ...) -- CPU_ReadMem(4096 bytes @ 0x08002000) -- Updating C cache (4096 bytes @ 0x08002000) -- Read from C cache (4096 bytes @ 0x08002000) -- Data:  00 BF 61 E0 70 1C C6 B2 97 F8 2A 00 B0 42 EE DC ...  returns 0x00 (0032ms, 0843ms total)
T13B0 000:997 JLINK_ReadMem (0x08003000, 0x1000 Bytes, ...) -- CPU_ReadMem(4096 bytes @ 0x08003000) -- Updating C cache (4096 bytes @ 0x08003000) -- Read from C cache (4096 bytes @ 0x08003000) -- Data:  D6 FC 03 20 FE F7 31 F8 01 21 22 48 FD F7 BE FA ...  returns 0x00 (0032ms, 0875ms total)
T13B0 001:030 JLINK_ReadMem (0x08004000, 0x1000 Bytes, ...) -- CPU_ReadMem(4096 bytes @ 0x08004000) -- Updating C cache (4096 bytes @ 0x08004000) -- Read from C cache (4096 bytes @ 0x08004000) -- Data:  00 E0 00 21 45 18 04 20 FF F7 9A F9 04 00 0A D1 ...  returns 0x00 (0033ms, 0908ms total)
T13B0 001:064 JLINK_ReadMem (0x08005000, 0x05C0 Bytes, ...) -- CPU_ReadMem(1472 bytes @ 0x08005000) -- Updating C cache (1472 bytes @ 0x08005000) -- Read from C cache (1472 bytes @ 0x08005000) -- Data:  08 70 10 F0 01 0F 01 D0 FF F7 22 FE 10 BD 00 00 ...  returns 0x00 (0013ms, 0921ms total)
T13B0 001:130 JLINK_SetResetType(JLINKARM_RESET_TYPE_NORMAL)  returns JLINKARM_RESET_TYPE_NORMAL (0000ms, 0921ms total)
T13B0 001:130 JLINK_Reset() -- CPU_WriteMem(4 bytes @ 0xE000EDF0) -- CPU_WriteMem(4 bytes @ 0xE000EDFC) >0x35 TIF> -- CPU_WriteMem(4 bytes @ 0xE000ED0C) -- CPU_ReadMem(4 bytes @ 0xE000EDF0) -- CPU_ReadMem(4 bytes @ 0xE000EDF0) -- CPU_WriteMem(4 bytes @ 0xE000EDF0) -- CPU_WriteMem(4 bytes @ 0xE000EDFC) -- CPU is running -- CPU_ReadMem(4 bytes @ 0xE000EDF0) -- CPU_WriteMem(4 bytes @ 0xE0002000) -- CPU_ReadMem(4 bytes @ 0xE000EDFC) -- CPU_ReadMem(4 bytes @ 0xE0001000) (0024ms, 0945ms total)
T13B0 001:154 JLINK_ReadReg(R15 (PC))  returns 0x080001C0 (0000ms, 0945ms total)
T13B0 001:154 JLINK_ReadReg(XPSR)  returns 0x01000000 (0000ms, 0945ms total)
T13B0 001:292 JLINK_ReadMem (0x080001C0, 0x003C Bytes, ...) -- CPU_ReadMem(64 bytes @ 0x080001C0) -- Updating C cache (64 bytes @ 0x080001C0) -- Read from C cache (60 bytes @ 0x080001C0) -- Data:  06 48 80 47 06 48 00 47 FE E7 FE E7 FE E7 FE E7 ...  returns 0x00 (0004ms, 0949ms total)
T13B0 001:361 JLINK_ReadMem (0x40029000, 0x0024 Bytes, ...) -- CPU_ReadMem(36 bytes @ 0x40029000) -- Data:  00 00 00 00 00 00 00 00 00 00 00 00 00 00 00 00 ...  returns 0x00 (0001ms, 0950ms total)
T13B0 001:362 JLINK_ReadMem (0x40029024, 0x0004 Bytes, ...) -- CPU_ReadMem(4 bytes @ 0x40029024) -- Data:  00 00 00 00  returns 0x00 (0001ms, 0951ms total)
T13B0 001:363 JLINK_ReadMem (0x40029048, 0x000C Bytes, ...) -- CPU_ReadMem(12 bytes @ 0x40029048) -- Data:  00 00 00 00 00 00 00 00 00 00 00 00  returns 0x00 (0001ms, 0952ms total)
T13B0 001:364 JLINK_ReadMem (0x40029054, 0x0004 Bytes, ...) -- CPU_ReadMem(4 bytes @ 0x40029054) -- Data:  00 00 00 00  returns 0x00 (0001ms, 0953ms total)
T13B0 001:388 JLINK_ReadMem (0x40021400, 0x0024 Bytes, ...) -- CPU_ReadMem(36 bytes @ 0x40021400) -- Data:  00 00 00 00 00 00 00 00 00 00 00 00 00 00 00 00 ...  returns 0x00 (0001ms, 0954ms total)
T13B0 001:389 JLINK_ReadMem (0x40021424, 0x0004 Bytes, ...) -- CPU_ReadMem(4 bytes @ 0x40021424) -- Data:  00 00 00 00  returns 0x00 (0001ms, 0955ms total)
T13B0 001:414 JLINK_ReadMem (0x40022000, 0x0024 Bytes, ...) -- CPU_ReadMem(36 bytes @ 0x40022000) -- Data:  00 00 00 00 00 00 00 00 00 00 00 00 00 00 00 00 ...  returns 0x00 (0002ms, 0957ms total)
T13B0 001:416 JLINK_ReadMem (0x40022024, 0x0004 Bytes, ...) -- CPU_ReadMem(4 bytes @ 0x40022024) -- Data:  00 00 00 00  returns 0x00 (0001ms, 0958ms total)
T13B0 001:442 JLINK_ReadMem (0x40015000, 0x0020 Bytes, ...) -- CPU_ReadMem(32 bytes @ 0x40015000) -- Data:  00 00 00 00 00 00 00 00 00 00 00 00 00 00 00 00 ...  returns 0x00 (0001ms, 0959ms total)
T13B0 001:443 JLINK_ReadMem (0x40015020, 0x0004 Bytes, ...) -- CPU_ReadMem(4 bytes @ 0x40015020) -- Data:  00 00 00 00  returns 0x00 (0001ms, 0960ms total)
T13B0 002:925 JLINK_ReadMem (0x20000050, 0x0004 Bytes, ...) -- CPU_ReadMem(64 bytes @ 0x20000040) -- Updating C cache (64 bytes @ 0x20000040) -- Read from C cache (4 bytes @ 0x20000050) -- Data:  80 08 70 47  returns 0x00 (0004ms, 0964ms total)
T13B0 002:930 JLINK_ReadMem (0x2000000A, 0x0002 Bytes, ...) -- CPU_ReadMem(64 bytes @ 0x20000000) -- Updating C cache (64 bytes @ 0x20000000) -- Read from C cache (2 bytes @ 0x2000000A) -- Data:  08 24  returns 0x00 (0002ms, 0966ms total)
T13B0 002:937 JLINK_ReadMem (0x20000054, 0x0004 Bytes, ...) -- Read from C cache (4 bytes @ 0x20000054) -- Data:  42 48 41 49  returns 0x00 (0000ms, 0966ms total)
T1B1C 002:953 JLINK_SetBPEx(Addr = 0x08002F5C, Type = 0xFFFFFFF2)  returns 0x00000001 (0000ms, 0966ms total)
T1B1C 002:953 JLINK_Go() -- CPU_WriteMem(4 bytes @ 0xE0002000) -- CPU_WriteMem(4 bytes @ 0xE0002008) -- CPU_WriteMem(4 bytes @ 0xE000200C) -- CPU_WriteMem(4 bytes @ 0xE0002010) -- CPU_WriteMem(4 bytes @ 0xE0002014) -- CPU_WriteMem(4 bytes @ 0xE0002018) -- CPU_WriteMem(4 bytes @ 0xE000201C) -- CPU_WriteMem(4 bytes @ 0xE0001004) (0011ms, 0977ms total)
T1B1C 003:064 JLINK_IsHalted()  returns TRUE (0003ms, 0980ms total)
T1B1C 003:067 JLINK_Halt()  returns 0x00 (0000ms, 0977ms total)
T1B1C 003:067 JLINK_IsHalted()  returns TRUE (0000ms, 0977ms total)
T1B1C 003:067 JLINK_IsHalted()  returns TRUE (0000ms, 0977ms total)
T1B1C 003:067 JLINK_IsHalted()  returns TRUE (0000ms, 0977ms total)
T1B1C 003:067 JLINK_ReadReg(R15 (PC))  returns 0x08002F5C (0000ms, 0977ms total)
T1B1C 003:067 JLINK_ReadReg(XPSR)  returns 0x61000000 (0000ms, 0977ms total)
T1B1C 003:067 JLINK_ClrBPEx(BPHandle = 0x00000001)  returns 0x00 (0000ms, 0977ms total)
T1B1C 003:067 JLINK_ReadMemU32(0xE000ED30, 0x0001 Items, ...) -- CPU_ReadMem(4 bytes @ 0xE000ED30) -- Data:  03 00 00 00  returns 0x01 (0001ms, 0978ms total)
T1B1C 003:068 JLINK_ReadMemU32(0xE0001028, 0x0001 Items, ...) -- CPU_ReadMem(4 bytes @ 0xE0001028) -- Data:  00 00 00 00  returns 0x01 (0001ms, 0979ms total)
T1B1C 003:069 JLINK_ReadMemU32(0xE0001038, 0x0001 Items, ...) -- CPU_ReadMem(4 bytes @ 0xE0001038) -- Data:  00 02 00 00  returns 0x01 (0001ms, 0980ms total)
T1B1C 003:070 JLINK_ReadMemU32(0xE0001048, 0x0001 Items, ...) -- CPU_ReadMem(4 bytes @ 0xE0001048) -- Data:  00 00 00 00  returns 0x01 (0001ms, 0981ms total)
T1B1C 003:071 JLINK_ReadMemU32(0xE0001058, 0x0001 Items, ...) -- CPU_ReadMem(4 bytes @ 0xE0001058) -- Data:  00 00 00 00  returns 0x01 (0001ms, 0982ms total)
T1B1C 003:072 JLINK_ReadReg(R0)  returns 0x08002F5D (0000ms, 0982ms total)
T1B1C 003:072 JLINK_ReadReg(R1)  returns 0x20022838 (0000ms, 0982ms total)
T1B1C 003:072 JLINK_ReadReg(R2)  returns 0x00000000 (0000ms, 0982ms total)
T1B1C 003:072 JLINK_ReadReg(R3)  returns 0x0800105D (0000ms, 0982ms total)
T1B1C 003:072 JLINK_ReadReg(R4)  returns 0x080054C8 (0000ms, 0982ms total)
T1B1C 003:072 JLINK_ReadReg(R5)  returns 0x080054C8 (0000ms, 0982ms total)
T1B1C 003:072 JLINK_ReadReg(R6)  returns 0x00000000 (0000ms, 0982ms total)
T1B1C 003:072 JLINK_ReadReg(R7)  returns 0x00000000 (0000ms, 0982ms total)
T1B1C 003:072 JLINK_ReadReg(R8)  returns 0x00000000 (0000ms, 0982ms total)
T1B1C 003:072 JLINK_ReadReg(R9)  returns 0x00000000 (0000ms, 0982ms total)
T1B1C 003:072 JLINK_ReadReg(R10)  returns 0x00000000 (0000ms, 0982ms total)
T1B1C 003:072 JLINK_ReadReg(R11)  returns 0x00000000 (0000ms, 0982ms total)
T1B1C 003:072 JLINK_ReadReg(R12)  returns 0x00000000 (0000ms, 0982ms total)
T1B1C 003:072 JLINK_ReadReg(R13 (SP))  returns 0x20022838 (0000ms, 0982ms total)
T1B1C 003:072 JLINK_ReadReg(R14)  returns 0x080002AD (0000ms, 0982ms total)
T1B1C 003:072 JLINK_ReadReg(R15 (PC))  returns 0x08002F5C (0000ms, 0982ms total)
T1B1C 003:072 JLINK_ReadReg(XPSR)  returns 0x61000000 (0000ms, 0982ms total)
T1B1C 003:072 JLINK_ReadReg(MSP)  returns 0x20022838 (0000ms, 0982ms total)
T1B1C 003:072 JLINK_ReadReg(PSP)  returns 0x00000000 (0000ms, 0982ms total)
T1B1C 003:072 JLINK_ReadReg(CFBP)  returns 0x00000000 (0000ms, 0982ms total)
T1B1C 003:072 JLINK_ReadReg(FPSCR)  returns 0x00000000 (0005ms, 0987ms total)
T1B1C 003:077 JLINK_ReadReg(FPS0)  returns 0x00000000 (0000ms, 0987ms total)
T1B1C 003:077 JLINK_ReadReg(FPS1)  returns 0x00000000 (0000ms, 0987ms total)
T1B1C 003:077 JLINK_ReadReg(FPS2)  returns 0x00000000 (0000ms, 0987ms total)
T1B1C 003:077 JLINK_ReadReg(FPS3)  returns 0x00000000 (0000ms, 0987ms total)
T1B1C 003:077 JLINK_ReadReg(FPS4)  returns 0x00000000 (0000ms, 0987ms total)
T1B1C 003:077 JLINK_ReadReg(FPS5)  returns 0x00000000 (0000ms, 0987ms total)
T1B1C 003:077 JLINK_ReadReg(FPS6)  returns 0x00000000 (0000ms, 0987ms total)
T1B1C 003:077 JLINK_ReadReg(FPS7)  returns 0x00000000 (0000ms, 0987ms total)
T1B1C 003:077 JLINK_ReadReg(FPS8)  returns 0x00000000 (0000ms, 0987ms total)
T1B1C 003:077 JLINK_ReadReg(FPS9)  returns 0x00000000 (0000ms, 0987ms total)
T1B1C 003:077 JLINK_ReadReg(FPS10)  returns 0x00000000 (0000ms, 0987ms total)
T1B1C 003:077 JLINK_ReadReg(FPS11)  returns 0x00000000 (0000ms, 0987ms total)
T1B1C 003:077 JLINK_ReadReg(FPS12)  returns 0x00000000 (0000ms, 0987ms total)
T1B1C 003:077 JLINK_ReadReg(FPS13)  returns 0x00000000 (0000ms, 0987ms total)
T1B1C 003:077 JLINK_ReadReg(FPS14)  returns 0x00000000 (0000ms, 0987ms total)
T1B1C 003:077 JLINK_ReadReg(FPS15)  returns 0x00000000 (0000ms, 0987ms total)
T1B1C 003:077 JLINK_ReadReg(FPS16)  returns 0x00000000 (0000ms, 0987ms total)
T1B1C 003:077 JLINK_ReadReg(FPS17)  returns 0x00000000 (0000ms, 0987ms total)
T1B1C 003:077 JLINK_ReadReg(FPS18)  returns 0x00000000 (0000ms, 0987ms total)
T1B1C 003:077 JLINK_ReadReg(FPS19)  returns 0x00000000 (0000ms, 0987ms total)
T1B1C 003:077 JLINK_ReadReg(FPS20)  returns 0x00000000 (0000ms, 0987ms total)
T1B1C 003:077 JLINK_ReadReg(FPS31)  returns 0x00000000 (0000ms, 0987ms total)
T1B1C 003:077 JLINK_ReadReg(FPS7)  returns 0x00000000 (0000ms, 0987ms total)
T1B1C 003:077 JLINK_ReadReg(FPS8)  returns 0x00000000 (0000ms, 0987ms total)
T1B1C 003:077 JLINK_ReadReg(FPS9)  returns 0x00000000 (0000ms, 0987ms total)
T1B1C 003:077 JLINK_ReadReg(FPS10)  returns 0x00000000 (0000ms, 0987ms total)
T1B1C 003:077 JLINK_ReadReg(FPS11)  returns 0x00000000 (0000ms, 0987ms total)
T1B1C 003:077 JLINK_ReadReg(FPS12)  returns 0x00000000 (0000ms, 0987ms total)
T1B1C 003:077 JLINK_ReadReg(FPS13)  returns 0x00000000 (0000ms, 0987ms total)
T1B1C 003:077 JLINK_ReadReg(FPS14)  returns 0x00000000 (0000ms, 0987ms total)
T1B1C 003:077 JLINK_ReadReg(FPS15)  returns 0x00000000 (0000ms, 0987ms total)
T1B1C 003:077 JLINK_ReadReg(FPS16)  returns 0x00000000 (0000ms, 0987ms total)
T13B0 003:078 JLINK_ReadMem (0x00000000, 0x0004 Bytes, ...) -- CPU_ReadMem(4 bytes @ 0x00000004) -- CPU_ReadMem(64 bytes @ 0x08000000) -- Updating C cache (64 bytes @ 0x08000000) -- Read from C cache (4 bytes @ 0x08000000) -- Data:  38 28 02 20  returns 0x00 (0003ms, 0990ms total)
T13B0 003:088 JLINK_ReadMem (0x20000050, 0x0004 Bytes, ...) -- CPU_ReadMem(64 bytes @ 0x20000040) -- Updating C cache (64 bytes @ 0x20000040) -- Read from C cache (4 bytes @ 0x20000050) -- Data:  00 00 00 00  returns 0x00 (0002ms, 0992ms total)
T13B0 003:090 JLINK_ReadMem (0x2000000A, 0x0002 Bytes, ...) -- CPU_ReadMem(64 bytes @ 0x20000000) -- Updating C cache (64 bytes @ 0x20000000) -- Read from C cache (2 bytes @ 0x2000000A) -- Data:  00 00  returns 0x00 (0002ms, 0994ms total)
T13B0 003:092 JLINK_ReadMem (0x20000054, 0x0004 Bytes, ...) -- Read from C cache (4 bytes @ 0x20000054) -- Data:  00 95 BA 0A  returns 0x00 (0000ms, 0994ms total)
T13B0 003:092 JLINK_ReadMem (0x40029000, 0x0024 Bytes, ...) -- CPU_ReadMem(36 bytes @ 0x40029000) -- Data:  00 00 00 00 00 00 00 00 00 00 00 00 00 00 00 00 ...  returns 0x00 (0002ms, 0996ms total)
T13B0 003:094 JLINK_ReadMem (0x40029024, 0x0004 Bytes, ...) -- CPU_ReadMem(4 bytes @ 0x40029024) -- Data:  00 00 00 00  returns 0x00 (0001ms, 0997ms total)
T13B0 003:095 JLINK_ReadMem (0x40029048, 0x000C Bytes, ...) -- CPU_ReadMem(12 bytes @ 0x40029048) -- Data:  00 00 00 00 00 00 00 00 00 00 00 00  returns 0x00 (0001ms, 0998ms total)
T13B0 003:096 JLINK_ReadMem (0x40029054, 0x0004 Bytes, ...) -- CPU_ReadMem(4 bytes @ 0x40029054) -- Data:  00 00 00 00  returns 0x00 (0002ms, 1000ms total)
T13B0 003:098 JLINK_ReadMem (0x40022000, 0x0024 Bytes, ...) -- CPU_ReadMem(36 bytes @ 0x40022000) -- Data:  00 00 00 00 00 00 00 00 00 00 00 00 00 00 00 00 ...  returns 0x00 (0002ms, 1002ms total)
T13B0 003:100 JLINK_ReadMem (0x40022024, 0x0004 Bytes, ...) -- CPU_ReadMem(4 bytes @ 0x40022024) -- Data:  00 00 00 00  returns 0x00 (0001ms, 1003ms total)
T13B0 003:101 JLINK_ReadMem (0x40021400, 0x0024 Bytes, ...) -- CPU_ReadMem(36 bytes @ 0x40021400) -- Data:  00 00 00 00 00 00 00 00 00 00 00 00 00 00 00 00 ...  returns 0x00 (0002ms, 1005ms total)
T13B0 003:103 JLINK_ReadMem (0x40021424, 0x0004 Bytes, ...) -- CPU_ReadMem(4 bytes @ 0x40021424) -- Data:  00 00 00 00  returns 0x00 (0001ms, 1006ms total)
T13B0 003:104 JLINK_ReadMem (0x40015000, 0x0020 Bytes, ...) -- CPU_ReadMem(32 bytes @ 0x40015000) -- Data:  00 00 00 00 00 00 00 00 00 00 00 00 00 00 00 00 ...  returns 0x00 (0002ms, 1008ms total)
T13B0 003:106 JLINK_ReadMem (0x40015020, 0x0004 Bytes, ...) -- CPU_ReadMem(4 bytes @ 0x40015020) -- Data:  00 00 00 00  returns 0x00 (0001ms, 1009ms total)
T13B0 003:108 JLINK_ReadMem (0x08002F5C, 0x003C Bytes, ...) -- CPU_ReadMem(128 bytes @ 0x08002F40) -- Updating C cache (128 bytes @ 0x08002F40) -- Read from C cache (60 bytes @ 0x08002F5C) -- Data:  0E B5 FD F7 39 FC FD F7 F3 FC FD F7 15 FB FD F7 ...  returns 0x00 (0002ms, 1011ms total)
T1B1C 011:734 JLINK_Go() -- CPU_WriteMem(4 bytes @ 0xE0002008) (0009ms, 1020ms total)
T1B1C 011:843 JLINK_IsHalted()  returns FALSE (0001ms, 1021ms total)
T1B1C 011:944 JLINK_IsHalted()  returns FALSE (0001ms, 1021ms total)
T1B1C 012:045 JLINK_IsHalted()  returns FALSE (0001ms, 1021ms total)
T1B1C 012:146 JLINK_IsHalted()  returns FALSE (0002ms, 1022ms total)
T1B1C 012:248 JLINK_ReadMemU32(0xE0001004, 0x0001 Items, ...) -- CPU is running -- CPU_ReadMem(4 bytes @ 0xE0001004) -- Data:  0F 03 80 00  returns 0x01 (0001ms, 1021ms total)
T13B0 012:249 JLINK_ReadMem (0x20000050, 0x0004 Bytes, ...) -- CPU is running -- CPU_ReadMem(4 bytes @ 0x20000050) -- Data:  00 00 00 00  returns 0x00 (0001ms, 1022ms total)
T13B0 012:250 JLINK_ReadMem (0x2000000A, 0x0002 Bytes, ...) -- CPU is running -- CPU_ReadMem(2 bytes @ 0x2000000A) -- Data:  F8 2C  returns 0x00 (0001ms, 1023ms total)
T13B0 012:251 JLINK_ReadMem (0x20000054, 0x0004 Bytes, ...) -- CPU is running -- CPU_ReadMem(4 bytes @ 0x20000054) -- Data:  00 95 BA 0A  returns 0x00 (0001ms, 1024ms total)
T13B0 012:252 JLINK_ReadMem (0x40029000, 0x0024 Bytes, ...) -- CPU is running -- CPU_ReadMem(36 bytes @ 0x40029000) -- Data:  00 00 00 00 00 00 00 00 00 00 00 00 00 00 00 00 ...  returns 0x00 (0001ms, 1025ms total)
T13B0 012:253 JLINK_ReadMem (0x40029024, 0x0004 Bytes, ...) -- CPU is running -- CPU_ReadMem(4 bytes @ 0x40029024) -- Data:  00 00 00 00  returns 0x00 (0001ms, 1026ms total)
T13B0 012:254 JLINK_ReadMem (0x40029048, 0x000C Bytes, ...) -- CPU is running -- CPU_ReadMem(12 bytes @ 0x40029048) -- Data:  00 00 00 00 00 00 00 00 00 00 00 00  returns 0x00 (0001ms, 1027ms total)
T13B0 012:255 JLINK_ReadMem (0x40029054, 0x0004 Bytes, ...) -- CPU is running -- CPU_ReadMem(4 bytes @ 0x40029054) -- Data:  00 00 00 00  returns 0x00 (0001ms, 1028ms total)
T13B0 012:256 JLINK_ReadMem (0x40022000, 0x0024 Bytes, ...) -- CPU is running -- CPU_ReadMem(36 bytes @ 0x40022000) -- Data:  A9 00 00 00 00 00 00 00 AA 00 00 00 A8 00 00 00 ...  returns 0x00 (0002ms, 1030ms total)
T13B0 012:258 JLINK_ReadMem (0x40022024, 0x0004 Bytes, ...) -- CPU is running -- CPU_ReadMem(4 bytes @ 0x40022024) -- Data:  00 00 00 00  returns 0x00 (0001ms, 1031ms total)
T13B0 012:259 JLINK_ReadMem (0x40022000, 0x0004 Bytes, ...) -- CPU is running -- CPU_ReadMem(4 bytes @ 0x40022000) -- Data:  A9 00 00 00  returns 0x00 (0001ms, 1032ms total)
T13B0 012:260 JLINK_ReadMem (0x40022000, 0x0004 Bytes, ...) -- CPU is running -- CPU_ReadMem(4 bytes @ 0x40022000) -- Data:  A9 00 00 00  returns 0x00 (0001ms, 1033ms total)
T13B0 012:261 JLINK_ReadMem (0x40022000, 0x0004 Bytes, ...) -- CPU is running -- CPU_ReadMem(4 bytes @ 0x40022000) -- Data:  A9 00 00 00  returns 0x00 (0001ms, 1034ms total)
T13B0 012:262 JLINK_ReadMem (0x40022000, 0x0004 Bytes, ...) -- CPU is running -- CPU_ReadMem(4 bytes @ 0x40022000) -- Data:  A9 00 00 00  returns 0x00 (0001ms, 1035ms total)
T13B0 012:263 JLINK_ReadMem (0x40022000, 0x0004 Bytes, ...) -- CPU is running -- CPU_ReadMem(4 bytes @ 0x40022000) -- Data:  A9 00 00 00  returns 0x00 (0001ms, 1036ms total)
T13B0 012:264 JLINK_ReadMem (0x40022000, 0x0004 Bytes, ...) -- CPU is running -- CPU_ReadMem(4 bytes @ 0x40022000) -- Data:  A9 00 00 00  returns 0x00 (0001ms, 1037ms total)
T13B0 012:265 JLINK_ReadMem (0x40022000, 0x0004 Bytes, ...) -- CPU is running -- CPU_ReadMem(4 bytes @ 0x40022000) -- Data:  A9 00 00 00  returns 0x00 (0001ms, 1038ms total)
T13B0 012:266 JLINK_ReadMem (0x40022000, 0x0004 Bytes, ...) -- CPU is running -- CPU_ReadMem(4 bytes @ 0x40022000) -- Data:  A9 00 00 00  returns 0x00 (0001ms, 1039ms total)
T13B0 012:267 JLINK_ReadMem (0x40022000, 0x0004 Bytes, ...) -- CPU is running -- CPU_ReadMem(4 bytes @ 0x40022000) -- Data:  A9 00 00 00  returns 0x00 (0001ms, 1040ms total)
T13B0 012:268 JLINK_ReadMem (0x40022000, 0x0004 Bytes, ...) -- CPU is running -- CPU_ReadMem(4 bytes @ 0x40022000) -- Data:  A9 00 00 00  returns 0x00 (0001ms, 1041ms total)
T13B0 012:269 JLINK_ReadMem (0x40022000, 0x0004 Bytes, ...) -- CPU is running -- CPU_ReadMem(4 bytes @ 0x40022000) -- Data:  A9 00 00 00  returns 0x00 (0001ms, 1042ms total)
T13B0 012:270 JLINK_ReadMem (0x40022000, 0x0004 Bytes, ...) -- CPU is running -- CPU_ReadMem(4 bytes @ 0x40022000) -- Data:  A9 00 00 00  returns 0x00 (0001ms, 1043ms total)
T13B0 012:271 JLINK_ReadMem (0x40022000, 0x0004 Bytes, ...) -- CPU is running -- CPU_ReadMem(4 bytes @ 0x40022000) -- Data:  A9 00 00 00  returns 0x00 (0001ms, 1044ms total)
T13B0 012:272 JLINK_ReadMem (0x40022000, 0x0004 Bytes, ...) -- CPU is running -- CPU_ReadMem(4 bytes @ 0x40022000) -- Data:  A9 00 00 00  returns 0x00 (0001ms, 1045ms total)
T13B0 012:273 JLINK_ReadMem (0x40022000, 0x0004 Bytes, ...) -- CPU is running -- CPU_ReadMem(4 bytes @ 0x40022000) -- Data:  A9 00 00 00  returns 0x00 (0001ms, 1046ms total)
T13B0 012:274 JLINK_ReadMem (0x40022000, 0x0004 Bytes, ...) -- CPU is running -- CPU_ReadMem(4 bytes @ 0x40022000) -- Data:  A9 00 00 00  returns 0x00 (0001ms, 1047ms total)
T13B0 012:275 JLINK_ReadMem (0x40022000, 0x0004 Bytes, ...) -- CPU is running -- CPU_ReadMem(4 bytes @ 0x40022000) -- Data:  A9 00 00 00  returns 0x00 (0001ms, 1048ms total)
T13B0 012:276 JLINK_ReadMem (0x40022008, 0x0004 Bytes, ...) -- CPU is running -- CPU_ReadMem(4 bytes @ 0x40022008) -- Data:  AA 00 00 00  returns 0x00 (0001ms, 1049ms total)
T13B0 012:277 JLINK_ReadMem (0x40022008, 0x0004 Bytes, ...) -- CPU is running -- CPU_ReadMem(4 bytes @ 0x40022008) -- Data:  AA 00 00 00  returns 0x00 (0001ms, 1050ms total)
T13B0 012:278 JLINK_ReadMem (0x40022008, 0x0004 Bytes, ...) -- CPU is running -- CPU_ReadMem(4 bytes @ 0x40022008) -- Data:  AA 00 00 00  returns 0x00 (0001ms, 1051ms total)
T13B0 012:279 JLINK_ReadMem (0x40022008, 0x0004 Bytes, ...) -- CPU is running -- CPU_ReadMem(4 bytes @ 0x40022008) -- Data:  AA 00 00 00  returns 0x00 (0001ms, 1052ms total)
T13B0 012:280 JLINK_ReadMem (0x40022008, 0x0004 Bytes, ...) -- CPU is running -- CPU_ReadMem(4 bytes @ 0x40022008) -- Data:  AA 00 00 00  returns 0x00 (0001ms, 1053ms total)
T13B0 012:281 JLINK_ReadMem (0x40022008, 0x0004 Bytes, ...) -- CPU is running -- CPU_ReadMem(4 bytes @ 0x40022008) -- Data:  AA 00 00 00  returns 0x00 (0001ms, 1054ms total)
T13B0 012:282 JLINK_ReadMem (0x40022008, 0x0004 Bytes, ...) -- CPU is running -- CPU_ReadMem(4 bytes @ 0x40022008) -- Data:  AA 00 00 00  returns 0x00 (0001ms, 1055ms total)
T13B0 012:283 JLINK_ReadMem (0x40022008, 0x0004 Bytes, ...) -- CPU is running -- CPU_ReadMem(4 bytes @ 0x40022008) -- Data:  AA 00 00 00  returns 0x00 (0001ms, 1056ms total)
T13B0 012:284 JLINK_ReadMem (0x40022008, 0x0004 Bytes, ...) -- CPU is running -- CPU_ReadMem(4 bytes @ 0x40022008) -- Data:  AA 00 00 00  returns 0x00 (0001ms, 1057ms total)
T13B0 012:285 JLINK_ReadMem (0x40022008, 0x0004 Bytes, ...) -- CPU is running -- CPU_ReadMem(4 bytes @ 0x40022008) -- Data:  AA 00 00 00  returns 0x00 (0001ms, 1058ms total)
T13B0 012:286 JLINK_ReadMem (0x40022008, 0x0004 Bytes, ...) -- CPU is running -- CPU_ReadMem(4 bytes @ 0x40022008) -- Data:  AA 00 00 00  returns 0x00 (0001ms, 1059ms total)
T13B0 012:287 JLINK_ReadMem (0x40022008, 0x0004 Bytes, ...) -- CPU is running -- CPU_ReadMem(4 bytes @ 0x40022008) -- Data:  AA 00 00 00  returns 0x00 (0001ms, 1060ms total)
T13B0 012:288 JLINK_ReadMem (0x40022008, 0x0004 Bytes, ...) -- CPU is running -- CPU_ReadMem(4 bytes @ 0x40022008) -- Data:  AA 00 00 00  returns 0x00 (0001ms, 1061ms total)
T13B0 012:289 JLINK_ReadMem (0x40022008, 0x0004 Bytes, ...) -- CPU is running -- CPU_ReadMem(4 bytes @ 0x40022008) -- Data:  AA 00 00 00  returns 0x00 (0001ms, 1062ms total)
T13B0 012:290 JLINK_ReadMem (0x40022008, 0x0004 Bytes, ...) -- CPU is running -- CPU_ReadMem(4 bytes @ 0x40022008) -- Data:  AA 00 00 00  returns 0x00 (0001ms, 1063ms total)
T13B0 012:291 JLINK_ReadMem (0x40022008, 0x0004 Bytes, ...) -- CPU is running -- CPU_ReadMem(4 bytes @ 0x40022008) -- Data:  AA 00 00 00  returns 0x00 (0001ms, 1064ms total)
T13B0 012:292 JLINK_ReadMem (0x40022008, 0x0004 Bytes, ...) -- CPU is running -- CPU_ReadMem(4 bytes @ 0x40022008) -- Data:  AA 00 00 00  returns 0x00 (0001ms, 1065ms total)
T13B0 012:293 JLINK_ReadMem (0x4002200C, 0x0004 Bytes, ...) -- CPU is running -- CPU_ReadMem(4 bytes @ 0x4002200C) -- Data:  A8 00 00 00  returns 0x00 (0001ms, 1066ms total)
T13B0 012:294 JLINK_ReadMem (0x4002200C, 0x0004 Bytes, ...) -- CPU is running -- CPU_ReadMem(4 bytes @ 0x4002200C) -- Data:  A8 00 00 00  returns 0x00 (0001ms, 1067ms total)
T13B0 012:295 JLINK_ReadMem (0x4002200C, 0x0004 Bytes, ...) -- CPU is running -- CPU_ReadMem(4 bytes @ 0x4002200C) -- Data:  A8 00 00 00  returns 0x00 (0001ms, 1068ms total)
T13B0 012:296 JLINK_ReadMem (0x4002200C, 0x0004 Bytes, ...) -- CPU is running -- CPU_ReadMem(4 bytes @ 0x4002200C) -- Data:  A8 00 00 00  returns 0x00 (0001ms, 1069ms total)
T13B0 012:297 JLINK_ReadMem (0x4002200C, 0x0004 Bytes, ...) -- CPU is running -- CPU_ReadMem(4 bytes @ 0x4002200C) -- Data:  A8 00 00 00  returns 0x00 (0001ms, 1070ms total)
T13B0 012:298 JLINK_ReadMem (0x4002200C, 0x0004 Bytes, ...) -- CPU is running -- CPU_ReadMem(4 bytes @ 0x4002200C) -- Data:  A8 00 00 00  returns 0x00 (0001ms, 1071ms total)
T13B0 012:299 JLINK_ReadMem (0x4002200C, 0x0004 Bytes, ...) -- CPU is running -- CPU_ReadMem(4 bytes @ 0x4002200C) -- Data:  A8 00 00 00  returns 0x00 (0001ms, 1072ms total)
T13B0 012:300 JLINK_ReadMem (0x4002200C, 0x0004 Bytes, ...) -- CPU is running -- CPU_ReadMem(4 bytes @ 0x4002200C) -- Data:  A8 00 00 00  returns 0x00 (0001ms, 1073ms total)
T13B0 012:301 JLINK_ReadMem (0x4002200C, 0x0004 Bytes, ...) -- CPU is running -- CPU_ReadMem(4 bytes @ 0x4002200C) -- Data:  A8 00 00 00  returns 0x00 (0001ms, 1074ms total)
T13B0 012:302 JLINK_ReadMem (0x4002200C, 0x0004 Bytes, ...) -- CPU is running -- CPU_ReadMem(4 bytes @ 0x4002200C) -- Data:  A8 00 00 00  returns 0x00 (0001ms, 1075ms total)
T13B0 012:303 JLINK_ReadMem (0x4002200C, 0x0004 Bytes, ...) -- CPU is running -- CPU_ReadMem(4 bytes @ 0x4002200C) -- Data:  A8 00 00 00  returns 0x00 (0001ms, 1076ms total)
T13B0 012:304 JLINK_ReadMem (0x4002200C, 0x0004 Bytes, ...) -- CPU is running -- CPU_ReadMem(4 bytes @ 0x4002200C) -- Data:  A8 00 00 00  returns 0x00 (0001ms, 1077ms total)
T13B0 012:305 JLINK_ReadMem (0x4002200C, 0x0004 Bytes, ...) -- CPU is running -- CPU_ReadMem(4 bytes @ 0x4002200C) -- Data:  A8 00 00 00  returns 0x00 (0001ms, 1078ms total)
T13B0 012:306 JLINK_ReadMem (0x4002200C, 0x0004 Bytes, ...) -- CPU is running -- CPU_ReadMem(4 bytes @ 0x4002200C) -- Data:  A8 00 00 00  returns 0x00 (0001ms, 1079ms total)
T13B0 012:307 JLINK_ReadMem (0x4002200C, 0x0004 Bytes, ...) -- CPU is running -- CPU_ReadMem(4 bytes @ 0x4002200C) -- Data:  A8 00 00 00  returns 0x00 (0001ms, 1080ms total)
T13B0 012:308 JLINK_ReadMem (0x4002200C, 0x0004 Bytes, ...) -- CPU is running -- CPU_ReadMem(4 bytes @ 0x4002200C) -- Data:  A8 00 00 00  returns 0x00 (0001ms, 1081ms total)
T13B0 012:309 JLINK_ReadMem (0x4002200C, 0x0004 Bytes, ...) -- CPU is running -- CPU_ReadMem(4 bytes @ 0x4002200C) -- Data:  A8 00 00 00  returns 0x00 (0001ms, 1082ms total)
T13B0 012:310 JLINK_ReadMem (0x40022010, 0x0004 Bytes, ...) -- CPU is running -- CPU_ReadMem(4 bytes @ 0x40022010) -- Data:  FA 07 00 00  returns 0x00 (0001ms, 1083ms total)
T13B0 012:311 JLINK_ReadMem (0x40022010, 0x0004 Bytes, ...) -- CPU is running -- CPU_ReadMem(4 bytes @ 0x40022010) -- Data:  F1 07 00 00  returns 0x00 (0001ms, 1084ms total)
T13B0 012:312 JLINK_ReadMem (0x40022010, 0x0004 Bytes, ...) -- CPU is running -- CPU_ReadMem(4 bytes @ 0x40022010) -- Data:  F1 07 00 00  returns 0x00 (0001ms, 1085ms total)
T13B0 012:313 JLINK_ReadMem (0x40022010, 0x0004 Bytes, ...) -- CPU is running -- CPU_ReadMem(4 bytes @ 0x40022010) -- Data:  F1 07 00 00  returns 0x00 (0001ms, 1086ms total)
T13B0 012:314 JLINK_ReadMem (0x40022010, 0x0004 Bytes, ...) -- CPU is running -- CPU_ReadMem(4 bytes @ 0x40022010) -- Data:  F1 07 00 00  returns 0x00 (0001ms, 1087ms total)
T13B0 012:315 JLINK_ReadMem (0x40022010, 0x0004 Bytes, ...) -- CPU is running -- CPU_ReadMem(4 bytes @ 0x40022010) -- Data:  F1 07 00 00  returns 0x00 (0001ms, 1088ms total)
T13B0 012:316 JLINK_ReadMem (0x40022010, 0x0004 Bytes, ...) -- CPU is running -- CPU_ReadMem(4 bytes @ 0x40022010) -- Data:  F0 07 00 00  returns 0x00 (0001ms, 1089ms total)
T13B0 012:317 JLINK_ReadMem (0x40022010, 0x0004 Bytes, ...) -- CPU is running -- CPU_ReadMem(4 bytes @ 0x40022010) -- Data:  F0 07 00 00  returns 0x00 (0001ms, 1090ms total)
T13B0 012:318 JLINK_ReadMem (0x40022010, 0x0004 Bytes, ...) -- CPU is running -- CPU_ReadMem(4 bytes @ 0x40022010) -- Data:  F1 07 00 00  returns 0x00 (0001ms, 1091ms total)
T13B0 012:319 JLINK_ReadMem (0x40022010, 0x0004 Bytes, ...) -- CPU is running -- CPU_ReadMem(4 bytes @ 0x40022010) -- Data:  F1 07 00 00  returns 0x00 (0001ms, 1092ms total)
T13B0 012:320 JLINK_ReadMem (0x40022010, 0x0004 Bytes, ...) -- CPU is running -- CPU_ReadMem(4 bytes @ 0x40022010) -- Data:  F1 07 00 00  returns 0x00 (0001ms, 1093ms total)
T13B0 012:321 JLINK_ReadMem (0x40022010, 0x0004 Bytes, ...) -- CPU is running -- CPU_ReadMem(4 bytes @ 0x40022010) -- Data:  F1 07 00 00  returns 0x00 (0001ms, 1094ms total)
T13B0 012:322 JLINK_ReadMem (0x40022010, 0x0004 Bytes, ...) -- CPU is running -- CPU_ReadMem(4 bytes @ 0x40022010) -- Data:  F1 07 00 00  returns 0x00 (0001ms, 1095ms total)
T13B0 012:323 JLINK_ReadMem (0x40022010, 0x0004 Bytes, ...) -- CPU is running -- CPU_ReadMem(4 bytes @ 0x40022010) -- Data:  F1 07 00 00  returns 0x00 (0001ms, 1096ms total)
T13B0 012:324 JLINK_ReadMem (0x40022010, 0x0004 Bytes, ...) -- CPU is running -- CPU_ReadMem(4 bytes @ 0x40022010) -- Data:  F1 07 00 00  returns 0x00 (0001ms, 1097ms total)
T13B0 012:325 JLINK_ReadMem (0x40022010, 0x0004 Bytes, ...) -- CPU is running -- CPU_ReadMem(4 bytes @ 0x40022010) -- Data:  F1 07 00 00  returns 0x00 (0001ms, 1098ms total)
T13B0 012:326 JLINK_ReadMem (0x40022010, 0x0004 Bytes, ...) -- CPU is running -- CPU_ReadMem(4 bytes @ 0x40022010) -- Data:  F0 07 00 00  returns 0x00 (0001ms, 1099ms total)
T13B0 012:327 JLINK_ReadMem (0x40022014, 0x0004 Bytes, ...) -- CPU is running -- CPU_ReadMem(4 bytes @ 0x40022014) -- Data:  01 00 00 00  returns 0x00 (0001ms, 1100ms total)
T13B0 012:328 JLINK_ReadMem (0x40022014, 0x0004 Bytes, ...) -- CPU is running -- CPU_ReadMem(4 bytes @ 0x40022014) -- Data:  01 00 00 00  returns 0x00 (0001ms, 1101ms total)
T13B0 012:329 JLINK_ReadMem (0x40022014, 0x0004 Bytes, ...) -- CPU is running -- CPU_ReadMem(4 bytes @ 0x40022014) -- Data:  01 00 00 00  returns 0x00 (0001ms, 1102ms total)
T13B0 012:330 JLINK_ReadMem (0x40022014, 0x0004 Bytes, ...) -- CPU is running -- CPU_ReadMem(4 bytes @ 0x40022014) -- Data:  01 00 00 00  returns 0x00 (0001ms, 1103ms total)
T13B0 012:331 JLINK_ReadMem (0x40022014, 0x0004 Bytes, ...) -- CPU is running -- CPU_ReadMem(4 bytes @ 0x40022014) -- Data:  01 00 00 00  returns 0x00 (0001ms, 1104ms total)
T13B0 012:332 JLINK_ReadMem (0x40022014, 0x0004 Bytes, ...) -- CPU is running -- CPU_ReadMem(4 bytes @ 0x40022014) -- Data:  00 00 00 00  returns 0x00 (0001ms, 1105ms total)
T13B0 012:333 JLINK_ReadMem (0x40022014, 0x0004 Bytes, ...) -- CPU is running -- CPU_ReadMem(4 bytes @ 0x40022014) -- Data:  01 00 00 00  returns 0x00 (0001ms, 1106ms total)
T13B0 012:334 JLINK_ReadMem (0x40022014, 0x0004 Bytes, ...) -- CPU is running -- CPU_ReadMem(4 bytes @ 0x40022014) -- Data:  01 00 00 00  returns 0x00 (0001ms, 1107ms total)
T13B0 012:335 JLINK_ReadMem (0x40022014, 0x0004 Bytes, ...) -- CPU is running -- CPU_ReadMem(4 bytes @ 0x40022014) -- Data:  01 00 00 00  returns 0x00 (0001ms, 1108ms total)
T13B0 012:336 JLINK_ReadMem (0x40022014, 0x0004 Bytes, ...) -- CPU is running -- CPU_ReadMem(4 bytes @ 0x40022014) -- Data:  01 00 00 00  returns 0x00 (0001ms, 1109ms total)
T13B0 012:337 JLINK_ReadMem (0x40022014, 0x0004 Bytes, ...) -- CPU is running -- CPU_ReadMem(4 bytes @ 0x40022014) -- Data:  01 00 00 00  returns 0x00 (0001ms, 1110ms total)
T13B0 012:338 JLINK_ReadMem (0x40022014, 0x0004 Bytes, ...) -- CPU is running -- CPU_ReadMem(4 bytes @ 0x40022014) -- Data:  00 00 00 00  returns 0x00 (0001ms, 1111ms total)
T13B0 012:339 JLINK_ReadMem (0x40022014, 0x0004 Bytes, ...) -- CPU is running -- CPU_ReadMem(4 bytes @ 0x40022014) -- Data:  01 00 00 00  returns 0x00 (0001ms, 1112ms total)
T13B0 012:340 JLINK_ReadMem (0x40022014, 0x0004 Bytes, ...) -- CPU is running -- CPU_ReadMem(4 bytes @ 0x40022014) -- Data:  01 00 00 00  returns 0x00 (0001ms, 1113ms total)
T13B0 012:341 JLINK_ReadMem (0x40022014, 0x0004 Bytes, ...) -- CPU is running -- CPU_ReadMem(4 bytes @ 0x40022014) -- Data:  00 00 00 00  returns 0x00 (0001ms, 1114ms total)
T13B0 012:342 JLINK_ReadMem (0x40022014, 0x0004 Bytes, ...) -- CPU is running -- CPU_ReadMem(4 bytes @ 0x40022014) -- Data:  01 00 00 00  returns 0x00 (0001ms, 1115ms total)
T13B0 012:343 JLINK_ReadMem (0x40022014, 0x0004 Bytes, ...) -- CPU is running -- CPU_ReadMem(4 bytes @ 0x40022014) -- Data:  01 00 00 00  returns 0x00 (0001ms, 1116ms total)
T13B0 012:344 JLINK_ReadMem (0x40022020, 0x0004 Bytes, ...) -- CPU is running -- CPU_ReadMem(4 bytes @ 0x40022020) -- Data:  50 55 00 00  returns 0x00 (0001ms, 1117ms total)
T13B0 012:345 JLINK_ReadMem (0x40022020, 0x0004 Bytes, ...) -- CPU is running -- CPU_ReadMem(4 bytes @ 0x40022020) -- Data:  50 55 00 00  returns 0x00 (0001ms, 1118ms total)
T13B0 012:346 JLINK_ReadMem (0x40022020, 0x0004 Bytes, ...) -- CPU is running -- CPU_ReadMem(4 bytes @ 0x40022020) -- Data:  50 55 00 00  returns 0x00 (0001ms, 1119ms total)
T13B0 012:347 JLINK_ReadMem (0x40022020, 0x0004 Bytes, ...) -- CPU is running -- CPU_ReadMem(4 bytes @ 0x40022020) -- Data:  50 55 00 00  returns 0x00 (0001ms, 1120ms total)
T13B0 012:348 JLINK_ReadMem (0x40022020, 0x0004 Bytes, ...) -- CPU is running -- CPU_ReadMem(4 bytes @ 0x40022020) -- Data:  50 55 00 00  returns 0x00 (0001ms, 1121ms total)
T13B0 012:349 JLINK_ReadMem (0x40022020, 0x0004 Bytes, ...) -- CPU is running -- CPU_ReadMem(4 bytes @ 0x40022020) -- Data:  50 55 00 00  returns 0x00 (0001ms, 1122ms total)
T13B0 012:350 JLINK_ReadMem (0x40022020, 0x0004 Bytes, ...) -- CPU is running -- CPU_ReadMem(4 bytes @ 0x40022020) -- Data:  50 55 00 00  returns 0x00 (0001ms, 1123ms total)
T13B0 012:351 JLINK_ReadMem (0x40022020, 0x0004 Bytes, ...) -- CPU is running -- CPU_ReadMem(4 bytes @ 0x40022020) -- Data:  50 55 00 00  returns 0x00 (0001ms, 1124ms total)
T13B0 012:352 JLINK_ReadMem (0x40022020, 0x0004 Bytes, ...) -- CPU is running -- CPU_ReadMem(4 bytes @ 0x40022020) -- Data:  50 55 00 00  returns 0x00 (0001ms, 1125ms total)
T13B0 012:353 JLINK_ReadMem (0x40021400, 0x0024 Bytes, ...) -- CPU is running -- CPU_ReadMem(36 bytes @ 0x40021400) -- Data:  00 90 0A 00 00 00 00 00 00 A0 0A 00 00 80 0A 00 ...  returns 0x00 (0001ms, 1126ms total)
T13B0 012:354 JLINK_ReadMem (0x40021424, 0x0004 Bytes, ...) -- CPU is running -- CPU_ReadMem(4 bytes @ 0x40021424) -- Data:  55 00 00 00  returns 0x00 (0001ms, 1127ms total)
T13B0 012:355 JLINK_ReadMem (0x40021400, 0x0004 Bytes, ...) -- CPU is running -- CPU_ReadMem(4 bytes @ 0x40021400) -- Data:  00 90 0A 00  returns 0x00 (0001ms, 1128ms total)
T13B0 012:356 JLINK_ReadMem (0x40021400, 0x0004 Bytes, ...) -- CPU is running -- CPU_ReadMem(4 bytes @ 0x40021400) -- Data:  00 90 0A 00  returns 0x00 (0001ms, 1129ms total)
T13B0 012:357 JLINK_ReadMem (0x40021400, 0x0004 Bytes, ...) -- CPU is running -- CPU_ReadMem(4 bytes @ 0x40021400) -- Data:  00 90 0A 00  returns 0x00 (0001ms, 1130ms total)
T13B0 012:358 JLINK_ReadMem (0x40021400, 0x0004 Bytes, ...) -- CPU is running -- CPU_ReadMem(4 bytes @ 0x40021400) -- Data:  00 90 0A 00  returns 0x00 (0001ms, 1131ms total)
T13B0 012:359 JLINK_ReadMem (0x40021400, 0x0004 Bytes, ...) -- CPU is running -- CPU_ReadMem(4 bytes @ 0x40021400) -- Data:  00 90 0A 00  returns 0x00 (0001ms, 1132ms total)
T13B0 012:360 JLINK_ReadMem (0x40021400, 0x0004 Bytes, ...) -- CPU is running -- CPU_ReadMem(4 bytes @ 0x40021400) -- Data:  00 90 0A 00  returns 0x00 (0001ms, 1133ms total)
T13B0 012:361 JLINK_ReadMem (0x40021400, 0x0004 Bytes, ...) -- CPU is running -- CPU_ReadMem(4 bytes @ 0x40021400) -- Data:  00 90 0A 00  returns 0x00 (0001ms, 1134ms total)
T13B0 012:362 JLINK_ReadMem (0x40021400, 0x0004 Bytes, ...) -- CPU is running -- CPU_ReadMem(4 bytes @ 0x40021400) -- Data:  00 90 0A 00  returns 0x00 (0001ms, 1135ms total)
T13B0 012:363 JLINK_ReadMem (0x40021400, 0x0004 Bytes, ...) -- CPU is running -- CPU_ReadMem(4 bytes @ 0x40021400) -- Data:  00 90 0A 00  returns 0x00 (0001ms, 1136ms total)
T13B0 012:364 JLINK_ReadMem (0x40021400, 0x0004 Bytes, ...) -- CPU is running -- CPU_ReadMem(4 bytes @ 0x40021400) -- Data:  00 90 0A 00  returns 0x00 (0001ms, 1137ms total)
T13B0 012:365 JLINK_ReadMem (0x40021400, 0x0004 Bytes, ...) -- CPU is running -- CPU_ReadMem(4 bytes @ 0x40021400) -- Data:  00 90 0A 00  returns 0x00 (0001ms, 1138ms total)
T13B0 012:366 JLINK_ReadMem (0x40021400, 0x0004 Bytes, ...) -- CPU is running -- CPU_ReadMem(4 bytes @ 0x40021400) -- Data:  00 90 0A 00  returns 0x00 (0001ms, 1139ms total)
T13B0 012:367 JLINK_ReadMem (0x40021400, 0x0004 Bytes, ...) -- CPU is running -- CPU_ReadMem(4 bytes @ 0x40021400) -- Data:  00 90 0A 00  returns 0x00 (0001ms, 1140ms total)
T13B0 012:368 JLINK_ReadMem (0x40021400, 0x0004 Bytes, ...) -- CPU is running -- CPU_ReadMem(4 bytes @ 0x40021400) -- Data:  00 90 0A 00  returns 0x00 (0001ms, 1141ms total)
T13B0 012:369 JLINK_ReadMem (0x40021400, 0x0004 Bytes, ...) -- CPU is running -- CPU_ReadMem(4 bytes @ 0x40021400) -- Data:  00 90 0A 00  returns 0x00 (0001ms, 1142ms total)
T13B0 012:370 JLINK_ReadMem (0x40021400, 0x0004 Bytes, ...) -- CPU is running -- CPU_ReadMem(4 bytes @ 0x40021400) -- Data:  00 90 0A 00  returns 0x00 (0001ms, 1143ms total)
T13B0 012:371 JLINK_ReadMem (0x40021400, 0x0004 Bytes, ...) -- CPU is running -- CPU_ReadMem(4 bytes @ 0x40021400) -- Data:  00 90 0A 00  returns 0x00 (0001ms, 1144ms total)
T13B0 012:377 JLINK_ReadMem (0x40021408, 0x0004 Bytes, ...) -- CPU is running -- CPU_ReadMem(4 bytes @ 0x40021408) -- Data:  00 A0 0A 00  returns 0x00 (0001ms, 1145ms total)
T13B0 012:378 JLINK_ReadMem (0x40021408, 0x0004 Bytes, ...) -- CPU is running -- CPU_ReadMem(4 bytes @ 0x40021408) -- Data:  00 A0 0A 00  returns 0x00 (0001ms, 1146ms total)
T13B0 012:379 JLINK_ReadMem (0x40021408, 0x0004 Bytes, ...) -- CPU is running -- CPU_ReadMem(4 bytes @ 0x40021408) -- Data:  00 A0 0A 00  returns 0x00 (0001ms, 1147ms total)
T13B0 012:380 JLINK_ReadMem (0x40021408, 0x0004 Bytes, ...) -- CPU is running -- CPU_ReadMem(4 bytes @ 0x40021408) -- Data:  00 A0 0A 00  returns 0x00 (0001ms, 1148ms total)
T13B0 012:381 JLINK_ReadMem (0x40021408, 0x0004 Bytes, ...) -- CPU is running -- CPU_ReadMem(4 bytes @ 0x40021408) -- Data:  00 A0 0A 00  returns 0x00 (0001ms, 1149ms total)
T13B0 012:382 JLINK_ReadMem (0x40021408, 0x0004 Bytes, ...) -- CPU is running -- CPU_ReadMem(4 bytes @ 0x40021408) -- Data:  00 A0 0A 00  returns 0x00 (0001ms, 1150ms total)
T13B0 012:383 JLINK_ReadMem (0x40021408, 0x0004 Bytes, ...) -- CPU is running -- CPU_ReadMem(4 bytes @ 0x40021408) -- Data:  00 A0 0A 00  returns 0x00 (0001ms, 1151ms total)
T13B0 012:384 JLINK_ReadMem (0x40021408, 0x0004 Bytes, ...) -- CPU is running -- CPU_ReadMem(4 bytes @ 0x40021408) -- Data:  00 A0 0A 00  returns 0x00 (0001ms, 1152ms total)
T13B0 012:385 JLINK_ReadMem (0x40021408, 0x0004 Bytes, ...) -- CPU is running -- CPU_ReadMem(4 bytes @ 0x40021408) -- Data:  00 A0 0A 00  returns 0x00 (0001ms, 1153ms total)
T13B0 012:386 JLINK_ReadMem (0x40021408, 0x0004 Bytes, ...) -- CPU is running -- CPU_ReadMem(4 bytes @ 0x40021408) -- Data:  00 A0 0A 00  returns 0x00 (0001ms, 1154ms total)
T13B0 012:387 JLINK_ReadMem (0x40021408, 0x0004 Bytes, ...) -- CPU is running -- CPU_ReadMem(4 bytes @ 0x40021408) -- Data:  00 A0 0A 00  returns 0x00 (0001ms, 1155ms total)
T13B0 012:388 JLINK_ReadMem (0x40021408, 0x0004 Bytes, ...) -- CPU is running -- CPU_ReadMem(4 bytes @ 0x40021408) -- Data:  00 A0 0A 00  returns 0x00 (0001ms, 1156ms total)
T13B0 012:389 JLINK_ReadMem (0x40021408, 0x0004 Bytes, ...) -- CPU is running -- CPU_ReadMem(4 bytes @ 0x40021408) -- Data:  00 A0 0A 00  returns 0x00 (0001ms, 1157ms total)
T13B0 012:390 JLINK_ReadMem (0x40021408, 0x0004 Bytes, ...) -- CPU is running -- CPU_ReadMem(4 bytes @ 0x40021408) -- Data:  00 A0 0A 00  returns 0x00 (0001ms, 1158ms total)
T13B0 012:391 JLINK_ReadMem (0x40021408, 0x0004 Bytes, ...) -- CPU is running -- CPU_ReadMem(4 bytes @ 0x40021408) -- Data:  00 A0 0A 00  returns 0x00 (0001ms, 1159ms total)
T13B0 012:392 JLINK_ReadMem (0x40021408, 0x0004 Bytes, ...) -- CPU is running -- CPU_ReadMem(4 bytes @ 0x40021408) -- Data:  00 A0 0A 00  returns 0x00 (0001ms, 1160ms total)
T13B0 012:393 JLINK_ReadMem (0x40021408, 0x0004 Bytes, ...) -- CPU is running -- CPU_ReadMem(4 bytes @ 0x40021408) -- Data:  00 A0 0A 00  returns 0x00 (0001ms, 1161ms total)
T13B0 012:398 JLINK_ReadMem (0x4002140C, 0x0004 Bytes, ...) -- CPU is running -- CPU_ReadMem(4 bytes @ 0x4002140C) -- Data:  00 80 0A 00  returns 0x00 (0001ms, 1162ms total)
T13B0 012:399 JLINK_ReadMem (0x4002140C, 0x0004 Bytes, ...) -- CPU is running -- CPU_ReadMem(4 bytes @ 0x4002140C) -- Data:  00 80 0A 00  returns 0x00 (0001ms, 1163ms total)
T13B0 012:400 JLINK_ReadMem (0x4002140C, 0x0004 Bytes, ...) -- CPU is running -- CPU_ReadMem(4 bytes @ 0x4002140C) -- Data:  00 80 0A 00  returns 0x00 (0001ms, 1164ms total)
T13B0 012:401 JLINK_ReadMem (0x4002140C, 0x0004 Bytes, ...) -- CPU is running -- CPU_ReadMem(4 bytes @ 0x4002140C) -- Data:  00 80 0A 00  returns 0x00 (0001ms, 1165ms total)
T13B0 012:402 JLINK_ReadMem (0x4002140C, 0x0004 Bytes, ...) -- CPU is running -- CPU_ReadMem(4 bytes @ 0x4002140C) -- Data:  00 80 0A 00  returns 0x00 (0001ms, 1166ms total)
T13B0 012:403 JLINK_ReadMem (0x4002140C, 0x0004 Bytes, ...) -- CPU is running -- CPU_ReadMem(4 bytes @ 0x4002140C) -- Data:  00 80 0A 00  returns 0x00 (0001ms, 1167ms total)
T13B0 012:404 JLINK_ReadMem (0x4002140C, 0x0004 Bytes, ...) -- CPU is running -- CPU_ReadMem(4 bytes @ 0x4002140C) -- Data:  00 80 0A 00  returns 0x00 (0001ms, 1168ms total)
T13B0 012:405 JLINK_ReadMem (0x4002140C, 0x0004 Bytes, ...) -- CPU is running -- CPU_ReadMem(4 bytes @ 0x4002140C) -- Data:  00 80 0A 00  returns 0x00 (0001ms, 1169ms total)
T13B0 012:406 JLINK_ReadMem (0x4002140C, 0x0004 Bytes, ...) -- CPU is running -- CPU_ReadMem(4 bytes @ 0x4002140C) -- Data:  00 80 0A 00  returns 0x00 (0001ms, 1170ms total)
T13B0 012:407 JLINK_ReadMem (0x4002140C, 0x0004 Bytes, ...) -- CPU is running -- CPU_ReadMem(4 bytes @ 0x4002140C) -- Data:  00 80 0A 00  returns 0x00 (0001ms, 1171ms total)
T13B0 012:408 JLINK_ReadMem (0x4002140C, 0x0004 Bytes, ...) -- CPU is running -- CPU_ReadMem(4 bytes @ 0x4002140C) -- Data:  00 80 0A 00  returns 0x00 (0001ms, 1172ms total)
T13B0 012:409 JLINK_ReadMem (0x4002140C, 0x0004 Bytes, ...) -- CPU is running -- CPU_ReadMem(4 bytes @ 0x4002140C) -- Data:  00 80 0A 00  returns 0x00 (0001ms, 1173ms total)
T13B0 012:410 JLINK_ReadMem (0x4002140C, 0x0004 Bytes, ...) -- CPU is running -- CPU_ReadMem(4 bytes @ 0x4002140C) -- Data:  00 80 0A 00  returns 0x00 (0001ms, 1174ms total)
T13B0 012:411 JLINK_ReadMem (0x4002140C, 0x0004 Bytes, ...) -- CPU is running -- CPU_ReadMem(4 bytes @ 0x4002140C) -- Data:  00 80 0A 00  returns 0x00 (0001ms, 1175ms total)
T13B0 012:412 JLINK_ReadMem (0x4002140C, 0x0004 Bytes, ...) -- CPU is running -- CPU_ReadMem(4 bytes @ 0x4002140C) -- Data:  00 80 0A 00  returns 0x00 (0001ms, 1176ms total)
T13B0 012:413 JLINK_ReadMem (0x4002140C, 0x0004 Bytes, ...) -- CPU is running -- CPU_ReadMem(4 bytes @ 0x4002140C) -- Data:  00 80 0A 00  returns 0x00 (0001ms, 1177ms total)
T13B0 012:414 JLINK_ReadMem (0x4002140C, 0x0004 Bytes, ...) -- CPU is running -- CPU_ReadMem(4 bytes @ 0x4002140C) -- Data:  00 80 0A 00  returns 0x00 (0001ms, 1178ms total)
T13B0 012:419 JLINK_ReadMem (0x40021410, 0x0004 Bytes, ...) -- CPU is running -- CPU_ReadMem(4 bytes @ 0x40021410) -- Data:  C0 05 00 00  returns 0x00 (0002ms, 1180ms total)
T13B0 012:421 JLINK_ReadMem (0x40021410, 0x0004 Bytes, ...) -- CPU is running -- CPU_ReadMem(4 bytes @ 0x40021410) -- Data:  40 04 00 00  returns 0x00 (0001ms, 1181ms total)
T13B0 012:422 JLINK_ReadMem (0x40021410, 0x0004 Bytes, ...) -- CPU is running -- CPU_ReadMem(4 bytes @ 0x40021410) -- Data:  C0 04 00 00  returns 0x00 (0001ms, 1182ms total)
T13B0 012:423 JLINK_ReadMem (0x40021410, 0x0004 Bytes, ...) -- CPU is running -- CPU_ReadMem(4 bytes @ 0x40021410) -- Data:  C0 05 00 00  returns 0x00 (0001ms, 1183ms total)
